Title: ***** 4th order rc circuit frequency response *****
Date: Mon Jul 24 14:31:18  2023
Plotname: AC Analysis
Flags: complex
No. Variables: 6
No. Points: 91
Variables:
	0	frequency	frequency grid=3
	1	cutoff	notype dims=1
	2	vdb(2)	decibel
	3	vdb(3)	decibel
	4	vdb(4)	decibel
	5	vdb(5)	decibel
Values:
 0	1.000000000000000e+00,0.000000000000000e+00
	3.999999000000000e+02,0.0
	-1.884700748597129e-05,0.0
	-2.605315196970532e-05,0.0
	-2.610090932285241e-05,0.0
	-2.612153242743855e-05,0.0

 1	1.258925411794167e+00,0.000000000000000e+00
	0.000000000000000e+00,0.000000000000000e+00
	-2.987043181128888e-05,0.0
	-4.129139552310253e-05,0.0
	-4.136708582363178e-05,0.0
	-4.139977124359715e-05,0.0

 2	1.584893192461114e+00,0.000000000000000e+00
	0.000000000000000e+00,0.000000000000000e+00
	-4.734128818868406e-05,0.0
	-6.544228175438225e-05,0.0
	-6.556224279720485e-05,0.0
	-6.561404569882596e-05,0.0

 3	1.995262314968880e+00,0.000000000000000e+00
	0.000000000000000e+00,0.000000000000000e+00
	-7.503049390941308e-05,0.0
	-1.037185999988396e-04,0.0
	-1.039087254389944e-04,0.0
	-1.039908275031272e-04,0.0

 4	2.511886431509581e+00,0.000000000000000e+00
	0.000000000000000e+00,0.000000000000000e+00
	-1.189143356863217e-04,0.0
	-1.643818307880692e-04,0.0
	-1.646831592976651e-04,0.0
	-1.648132823001353e-04,0.0

 5	3.162277660168380e+00,0.000000000000000e+00
	0.000000000000000e+00,0.000000000000000e+00
	-1.884640511816792e-04,0.0
	-2.605249512920987e-04,0.0
	-2.610025247828930e-04,0.0
	-2.612087558401615e-04,0.0

 6	3.981071705534974e+00,0.000000000000000e+00
	0.000000000000000e+00,0.000000000000000e+00
	-2.986891878067365e-04,0.0
	-4.128974568161316e-04,0.0
	-4.136543597608316e-04,0.0
	-4.139812139556088e-04,0.0

 7	5.011872336272725e+00,0.000000000000000e+00
	0.000000000000000e+00,0.000000000000000e+00
	-4.733748777752338e-04,0.0
	-6.543813766249243e-04,0.0
	-6.555809868720611e-04,0.0
	-6.560990158472903e-04,0.0

 8	6.309573444801935e+00,0.000000000000000e+00
	0.000000000000000e+00,0.000000000000000e+00
	-7.502094832895628e-04,0.0
	-1.037081911369814e-03,0.0
	-1.038983165287983e-03,0.0
	-1.039804185858221e-03,0.0

 9	7.943282347242818e+00,0.000000000000000e+00
	0.000000000000000e+00,0.000000000000000e+00
	-1.188903608142970e-03,0.0
	-1.643556875459680e-03,0.0
	-1.646570159358937e-03,0.0
	-1.647871389200573e-03,0.0

 10	1.000000000000001e+01,0.000000000000000e+00
	0.000000000000000e+00,0.000000000000000e+00
	-1.884038390515385e-03,0.0
	-2.604592926981715e-03,0.0
	-2.609368658887329e-03,0.0
	-2.611430969024793e-03,0.0

 11	1.258925411794168e+01,0.000000000000000e+00
	0.000000000000000e+00,0.000000000000000e+00
	-2.985379816732472e-03,0.0
	-4.127325707330621e-03,0.0
	-4.134894729213449e-03,0.0
	-4.138163270058432e-03,0.0

 12	1.584893192461115e+01,0.000000000000000e+00
	0.000000000000000e+00,0.000000000000000e+00
	-4.729952239506422e-03,0.0
	-6.539673642013320e-03,0.0
	-6.551669725475286e-03,0.0
	-6.556850012464850e-03,0.0

 13	1.995262314968881e+01,0.000000000000000e+00
	0.000000000000000e+00,0.000000000000000e+00
	-7.492564675849191e-03,0.0
	-1.036042606271344e-02,0.0
	-1.037943855415020e-02,0.0
	-1.038764875287122e-02,0.0

 14	2.511886431509582e+01,0.000000000000000e+00
	0.000000000000000e+00,0.000000000000000e+00
	-1.186512251100724e-02,0.0
	-1.640948830994101e-02,0.0
	-1.643962102901179e-02,0.0
	-1.645263330988301e-02,0.0

 15	3.162277660168382e+01,0.000000000000000e+00
	0.000000000000000e+00,0.000000000000000e+00
	-1.878041539742013e-02,0.0
	-2.598052027637182e-02,0.0
	-2.602827729416495e-02,0.0
	-2.604890035146536e-02,0.0

 16	3.981071705534977e+01,0.000000000000000e+00
	0.000000000000000e+00,0.000000000000000e+00
	-2.970355918517891e-02,0.0
	-4.110936197536470e-02,0.0
	-4.118505143746383e-02,0.0
	-4.121773673519417e-02,0.0

 17	5.011872336272729e+01,0.000000000000000e+00
	0.000000000000000e+00,0.000000000000000e+00
	-4.692370157158238e-02,0.0
	-6.498665179301082e-02,0.0
	-6.510661072681276e-02,0.0
	-6.515841331866565e-02,0.0

 18	6.309573444801940e+01,0.000000000000000e+00
	0.000000000000000e+00,0.000000000000000e+00
	-7.398778248072134e-02,0.0
	-1.025804835994385e-01,0.0
	-1.027706037392249e-01,0.0
	-1.028527050280122e-01,0.0

 19	7.943282347242825e+01,0.000000000000000e+00
	0.000000000000000e+00,0.000000000000000e+00
	-1.163195170929381e-01,0.0
	-1.615479823135352e-01,0.0
	-1.618492975113041e-01,0.0
	-1.619794185656184e-01,0.0

 20	1.000000000000001e+02,0.000000000000000e+00
	0.000000000000000e+00,0.000000000000000e+00
	-1.820406574214702e-01,0.0
	-2.535035778504518e-01,0.0
	-2.539811179045794e-01,0.0
	-2.541873440708025e-01,0.0

 21	1.258925411794169e+02,0.000000000000000e+00
	0.000000000000000e+00,0.000000000000000e+00
	-2.829158230216673e-01,0.0
	-3.956316205124754e-01,0.0
	-3.963884394702910e-01,0.0
	-3.967152813785085e-01,0.0

 22	1.584893192461116e+02,0.000000000000000e+00
	0.000000000000000e+00,0.000000000000000e+00
	-4.351073398664687e-01,0.0
	-6.124023830037210e-01,0.0
	-6.136017823021553e-01,0.0
	-6.141197804172572e-01,0.0

 23	1.995262314968883e+02,0.000000000000000e+00
	0.000000000000000e+00,0.000000000000000e+00
	-6.589955375736067e-01,0.0
	-9.366901186785979e-01,0.0
	-9.385908427891150e-01,0.0
	-9.394117858415034e-01,0.0

 24	2.511886431509584e+02,0.000000000000000e+00
	0.000000000000000e+00,0.000000000000000e+00
	-9.768182113353678e-01,0.0
	-1.408969478717075e+00,0.0
	-1.411981432083783e+00,0.0
	-1.413282467222343e+00,0.0

 25	3.162277660168385e+02,0.000000000000000e+00
	0.000000000000000e+00,0.000000000000000e+00
	-1.406947544112457e+00,0.0
	-2.073030994436369e+00,0.0
	-2.077803385319623e+00,0.0
	-2.079865206442037e+00,0.0

 26	3.981071705534980e+02,0.000000000000000e+00
	0.000000000000000e+00,0.000000000000000e+00
	-1.955429883101807e+00,0.0
	-2.967920171638739e+00,0.0
	-2.975480805738573e+00,0.0
	-2.978748118460043e+00,0.0

 27	5.011872336272732e+02,0.000000000000000e+00
	0.000000000000000e+00,0.000000000000000e+00
	-2.609229016627823e+00,0.0
	-4.119007815517276e+00,0.0
	-4.130982847650650e+00,0.0
	-4.136160050645522e+00,0.0

 28	6.309573444801945e+02,0.000000000000000e+00
	0.000000000000000e+00,0.000000000000000e+00
	-3.338223767411609e+00,0.0
	-5.533774530124837e+00,0.0
	-5.552734213832739e+00,0.0
	-5.560936669509013e+00,0.0

 29	7.943282347242831e+02,0.000000000000000e+00
	0.000000000000000e+00,0.000000000000000e+00
	-4.109152830438604e+00,0.0
	-7.205911144033754e+00,0.0
	-7.235911496959079e+00,0.0
	-7.248904342493195e+00,0.0

 30	1.000000000000002e+03,0.000000000000000e+00
	0.000000000000000e+00,0.000000000000000e+00
	-4.905035646177134e+00,0.0
	-9.125150842171664e+00,0.0
	-9.172576482763187e+00,0.0
	-9.193150777581003e+00,0.0

 31	1.258925411794170e+03,0.000000000000000e+00
	0.000000000000000e+00,0.000000000000000e+00
	-5.737512469320897e+00,0.0
	-1.128590251639891e+01,0.0
	-1.136076398018832e+01,0.0
	-1.139332701776650e+01,0.0

 32	1.584893192461117e+03,0.000000000000000e+00
	0.000000000000000e+00,0.000000000000000e+00
	-6.643981876359697e+00,0.0
	-1.368883240174879e+01,0.0
	-1.380672869261787e+01,0.0
	-1.385822507444463e+01,0.0

 33	1.995262314968884e+03,0.000000000000000e+00
	0.000000000000000e+00,0.000000000000000e+00
	-7.671709363541940e+00,0.0
	-1.633403102619226e+01,0.0
	-1.651903692430059e+01,0.0
	-1.660037257586439e+01,0.0

 34	2.511886431509586e+03,0.000000000000000e+00
	0.000000000000000e+00,0.000000000000000e+00
	-8.858279121741992e+00,0.0
	-1.920950865041983e+01,0.0
	-1.949823427003033e+01,0.0
	-1.962644598894350e+01,0.0

 35	3.162277660168386e+03,0.000000000000000e+00
	0.000000000000000e+00,0.000000000000000e+00
	-1.021846859442278e+01,0.0
	-2.228220502564065e+01,0.0
	-2.272908847983249e+01,0.0
	-2.293057264669195e+01,0.0

 36	3.981071705534981e+03,0.000000000000000e+00
	0.000000000000000e+00,0.000000000000000e+00
	-1.174275582001849e+01,0.0
	-2.549751762936063e+01,0.0
	-2.618086769649496e+01,0.0
	-2.649600648627851e+01,0.0

 37	5.011872336272734e+03,0.000000000000000e+00
	0.000000000000000e+00,0.000000000000000e+00
	-1.340523042955901e+01,0.0
	-2.878785003784085e+01,0.0
	-2.981511602211544e+01,0.0
	-3.030450573621884e+01,0.0

 38	6.309573444801948e+03,0.000000000000000e+00
	0.000000000000000e+00,0.000000000000000e+00
	-1.517419039092650e+01,0.0
	-3.208625252478318e+01,0.0
	-3.359575952760622e+01,0.0
	-3.434774970837724e+01,0.0

 39	7.943282347242834e+03,0.000000000000000e+00
	0.000000000000000e+00,0.000000000000000e+00
	-1.702000451233959e+01,0.0
	-3.534083091823705e+01,0.0
	-3.749704013453392e+01,0.0
	-3.863520161804738e+01,0.0

 40	1.000000000000003e+04,0.000000000000000e+00
	0.000000000000000e+00,0.000000000000000e+00
	-1.891876637495984e+01,0.0
	-3.852609312336987e+01,0.0
	-4.150806313712594e+01,0.0
	-4.319558456775012e+01,0.0

 41	1.258925411794171e+04,0.000000000000000e+00
	0.000000000000000e+00,0.000000000000000e+00
	-2.085286347480511e+01,0.0
	-4.164702074648226e+01,0.0
	-4.563457137373945e+01,0.0
	-4.807142329866845e+01,0.0

 42	1.584893192461118e+04,0.000000000000000e+00
	0.000000000000000e+00,0.000000000000000e+00
	-2.281006167559587e+01,0.0
	-4.473391266355598e+01,0.0
	-4.989809214088378e+01,0.0
	-5.330809399529728e+01,0.0

 43	1.995262314968885e+04,0.000000000000000e+00
	0.000000000000000e+00,0.000000000000000e+00
	-2.478218814630758e+01,0.0
	-4.783159445386204e+01,0.0
	-5.433150671351760e+01,0.0
	-5.894119123438291e+01,0.0

 44	2.511886431509587e+04,0.000000000000000e+00
	0.000000000000000e+00,0.000000000000000e+00
	-2.676392369871975e+01,0.0
	-5.098855299629223e+01,0.0
	-5.897028244843121e+01,0.0
	-6.498674687018804e+01,0.0

 45	3.162277660168388e+04,0.000000000000000e+00
	0.000000000000000e+00,0.000000000000000e+00
	-2.875186664088289e+01,0.0
	-5.424738583354667e+01,0.0
	-6.384076148548311e+01,0.0
	-7.143641692066466e+01,0.0

 46	3.981071705534984e+04,0.000000000000000e+00
	0.000000000000000e+00,0.000000000000000e+00
	-3.074386348197755e+01,0.0
	-5.763589297204959e+01,0.0
	-6.894990601981416e+01,0.0
	-7.825740833150518e+01,0.0

 47	5.011872336272738e+04,0.000000000000000e+00
	0.000000000000000e+00,0.000000000000000e+00
	-3.273854741309790e+01,0.0
	-6.116160681892093e+01,0.0
	-7.428186138918258e+01,0.0
	-8.539719454832117e+01,0.0

 48	6.309573444801952e+04,0.000000000000000e+00
	0.000000000000000e+00,0.000000000000000e+00
	-3.473503285326557e+01,0.0
	-6.481341269872487e+01,0.0
	-7.980314239789254e+01,0.0
	-9.279269855627142e+01,0.0

 49	7.943282347242841e+04,0.000000000000000e+00
	0.000000000000000e+00,0.000000000000000e+00
	-3.673272857782546e+01,0.0
	-6.856900071583166e+01,0.0
	-8.547267596864825e+01,0.0
	-1.003809560509299e+02,0.0

 50	1.000000000000003e+05,0.000000000000000e+00
	0.000000000000000e+00,0.000000000000000e+00
	-3.873123177892419e+01,0.0
	-7.240317599215922e+01,0.0
	-9.125096457059662e+01,0.0
	-1.081071690811684e+02,0.0

 51	1.258925411794172e+05,0.000000000000000e+00
	0.000000000000000e+00,0.000000000000000e+00
	-4.073026755602068e+01,0.0
	-7.629337846010489e+01,0.0
	-9.710523956353595e+01,0.0
	-1.159282623876769e+02,0.0

 52	1.584893192461119e+05,0.000000000000000e+00
	0.000000000000000e+00,0.000000000000000e+00
	-4.272965047016076e+01,0.0
	-8.022188530903036e+01,0.0
	-1.030108041818805e+02,0.0
	-1.238127595769139e+02,0.0

 53	1.995262314968887e+05,0.000000000000000e+00
	0.000000000000000e+00,0.000000000000000e+00
	-4.472925742026532e+01,0.0
	-8.417585075183480e+01,0.0
	-1.089501829074752e+02,0.0
	-1.317387928765883e+02,0.0

 54	2.511886431509589e+05,0.000000000000000e+00
	0.000000000000000e+00,0.000000000000000e+00
	-4.672900788905632e+01,0.0
	-8.814642492932956e+01,0.0
	-1.149115086589603e+02,0.0
	-1.396916770840463e+02,0.0

 55	3.162277660168391e+05,0.000000000000000e+00
	0.000000000000000e+00,0.000000000000000e+00
	-4.872884981853957e+01,0.0
	-9.212770420127798e+01,0.0
	-1.208869345734149e+02,0.0
	-1.476617682893869e+02,0.0

 56	3.981071705534988e+05,0.000000000000000e+00
	0.000000000000000e+00,0.000000000000000e+00
	-5.072874982891689e+01,0.0
	-9.611583002055249e+01,0.0
	-1.268713599721890e+02,0.0
	-1.556428243394324e+02,0.0

 57	5.011872336272742e+05,0.000000000000000e+00
	0.000000000000000e+00,0.000000000000000e+00
	-5.272868663756923e+01,0.0
	-1.001083129587979e+02,0.0
	-1.328615052264316e+02,0.0
	-1.636308423325678e+02,0.0

 58	6.309573444801958e+05,0.000000000000000e+00
	0.000000000000000e+00,0.000000000000000e+00
	-5.472864672557514e+01,0.0
	-1.041035600264100e+02,0.0
	-1.388552761675974e+02,0.0
	-1.716232705263865e+02,0.0

 59	7.943282347242847e+05,0.000000000000000e+00
	0.000000000000000e+00,0.000000000000000e+00
	-5.672862152643675e+01,0.0
	-1.081005571401961e+02,0.0
	-1.448513414511072e+02,0.0
	-1.796184883799384e+02,0.0

 60	1.000000000000004e+06,0.000000000000000e+00
	0.000000000000000e+00,0.000000000000000e+00
	-5.872860562031947e+01,0.0
	-1.120986608559871e+02,0.0
	-1.508488570394743e+02,0.0
	-1.876154691910554e+02,0.0

 61	1.258925411794172e+06,0.000000000000000e+00
	0.000000000000000e+00,0.000000000000000e+00
	-6.072859558163152e+01,0.0
	-1.160974637473047e+02,0.0
	-1.568472887748742e+02,0.0
	-1.956135634709362e+02,0.0

 62	1.584893192461120e+06,0.000000000000000e+00
	0.000000000000000e+00,0.000000000000000e+00
	-6.272858924660885e+01,0.0
	-1.200967081700938e+02,0.0
	-1.628462989851988e+02,0.0
	-2.036123607477303e+02,0.0

 63	1.995262314968888e+06,0.000000000000000e+00
	0.000000000000000e+00,0.000000000000000e+00
	-6.472858524906596e+01,0.0
	-1.240962313324523e+02,0.0
	-1.688456743579701e+02,0.0
	-2.116116017631547e+02,0.0

 64	2.511886431509591e+06,0.000000000000000e+00
	0.000000000000000e+00,0.000000000000000e+00
	-6.672858272662208e+01,0.0
	-1.280959304281576e+02,0.0
	-1.748452802001661e+02,0.0
	-2.196111228294570e+02,0.0

 65	3.162277660168393e+06,0.000000000000000e+00
	0.000000000000000e+00,0.000000000000000e+00
	-6.872858113500195e+01,0.0
	-1.320957405544225e+02,0.0
	-1.808450314856194e+02,0.0
	-2.276108206240861e+02,0.0

 66	3.981071705534990e+06,0.000000000000000e+00
	0.000000000000000e+00,0.000000000000000e+00
	-7.072858013073142e+01,0.0
	-1.360956207458400e+02,0.0
	-1.868448745502681e+02,0.0
	-2.356106299379674e+02,0.0

 67	5.011872336272745e+06,0.000000000000000e+00
	0.000000000000000e+00,0.000000000000000e+00
	-7.272857949706913e+01,0.0
	-1.400955451492049e+02,0.0
	-1.928447755279362e+02,0.0
	-2.436105096202060e+02,0.0

 68	6.309573444801961e+06,0.000000000000000e+00
	0.000000000000000e+00,0.000000000000000e+00
	-7.472857909725113e+01,0.0
	-1.440954974499454e+02,0.0
	-1.988447130479462e+02,0.0
	-2.516104337036546e+02,0.0

 69	7.943282347242852e+06,0.000000000000000e+00
	0.000000000000000e+00,0.000000000000000e+00
	-7.672857884498137e+01,0.0
	-1.480954673533463e+02,0.0
	-2.048446736252907e+02,0.0
	-2.596103858030806e+02,0.0

 70	1.000000000000005e+07,0.000000000000000e+00
	0.000000000000000e+00,0.000000000000000e+00
	-7.872857868580925e+01,0.0
	-1.520954483635164e+02,0.0
	-2.108446487510988e+02,0.0
	-2.676103555796753e+02,0.0

 71	1.258925411794173e+07,0.000000000000000e+00
	0.000000000000000e+00,0.000000000000000e+00
	-8.072857858537817e+01,0.0
	-1.560954363816802e+02,0.0
	-2.168446330564739e+02,0.0
	-2.756103365099215e+02,0.0

 72	1.584893192461121e+07,0.000000000000000e+00
	0.000000000000000e+00,0.000000000000000e+00
	-8.272857852201035e+01,0.0
	-1.600954288216274e+02,0.0
	-2.228446231538068e+02,0.0
	-2.836103244776908e+02,0.0

 73	1.995262314968889e+07,0.000000000000000e+00
	0.000000000000000e+00,0.000000000000000e+00
	-8.472857848202791e+01,0.0
	-1.640954240515464e+02,0.0
	-2.288446169056351e+02,0.0
	-2.916103168858546e+02,0.0

 74	2.511886431509592e+07,0.000000000000000e+00
	0.000000000000000e+00,0.000000000000000e+00
	-8.672857845680069e+01,0.0
	-1.680954210418248e+02,0.0
	-2.348446129633008e+02,0.0
	-2.996103120957252e+02,0.0

 75	3.162277660168395e+07,0.000000000000000e+00
	0.000000000000000e+00,0.000000000000000e+00
	-8.872857844088337e+01,0.0
	-1.720954191428172e+02,0.0
	-2.408446104758542e+02,0.0
	-3.076103090733559e+02,0.0

 76	3.981071705534992e+07,0.000000000000000e+00
	0.000000000000000e+00,0.000000000000000e+00
	-9.072857843084023e+01,0.0
	-1.760954179446238e+02,0.0
	-2.468446089063809e+02,0.0
	-3.156103071663691e+02,0.0

 77	5.011872336272748e+07,0.000000000000000e+00
	0.000000000000000e+00,0.000000000000000e+00
	-9.272857842450343e+01,0.0
	-1.800954171886147e+02,0.0
	-2.528446079161098e+02,0.0
	-3.236103059631415e+02,0.0

 78	6.309573444801965e+07,0.000000000000000e+00
	0.000000000000000e+00,0.000000000000000e+00
	-9.472857842050517e+01,0.0
	-1.840954167116050e+02,0.0
	-2.588446072912909e+02,0.0
	-3.316103052039562e+02,0.0

 79	7.943282347242856e+07,0.000000000000000e+00
	0.000000000000000e+00,0.000000000000000e+00
	-9.672857841798246e+01,0.0
	-1.880954164106322e+02,0.0
	-2.648446068970568e+02,0.0
	-3.396103047249425e+02,0.0

 80	1.000000000000005e+08,0.000000000000000e+00
	0.000000000000000e+00,0.000000000000000e+00
	-9.872857841639073e+01,0.0
	-1.920954162207312e+02,0.0
	-2.708446066483119e+02,0.0
	-3.476103044227052e+02,0.0

 81	1.258925411794174e+08,0.000000000000000e+00
	0.000000000000000e+00,0.000000000000000e+00
	-1.007285784153864e+02,0.0
	-1.960954161009118e+02,0.0
	-2.768446064913644e+02,0.0
	-3.556103042320064e+02,0.0

 82	1.584893192461122e+08,0.000000000000000e+00
	0.000000000000000e+00,0.000000000000000e+00
	-1.027285784147527e+02,0.0
	-2.000954160253108e+02,0.0
	-2.828446063923373e+02,0.0
	-3.636103041116837e+02,0.0

 83	1.995262314968891e+08,0.000000000000000e+00
	0.000000000000000e+00,0.000000000000000e+00
	-1.047285784143529e+02,0.0
	-2.040954159776099e+02,0.0
	-2.888446063298554e+02,0.0
	-3.716103040357651e+02,0.0

 84	2.511886431509594e+08,0.000000000000000e+00
	0.000000000000000e+00,0.000000000000000e+00
	-1.067285784141006e+02,0.0
	-2.080954159475126e+02,0.0
	-2.948446062904320e+02,0.0
	-3.796103039878637e+02,0.0

 85	3.162277660168397e+08,0.000000000000000e+00
	0.000000000000000e+00,0.000000000000000e+00
	-1.087285784139414e+02,0.0
	-2.120954159285225e+02,0.0
	-3.008446062655574e+02,0.0
	-3.876103039576400e+02,0.0

 86	3.981071705534995e+08,0.000000000000000e+00
	0.000000000000000e+00,0.000000000000000e+00
	-1.107285784138410e+02,0.0
	-2.160954159165405e+02,0.0
	-3.068446062498627e+02,0.0
	-3.956103039385701e+02,0.0

 87	5.011872336272751e+08,0.000000000000000e+00
	0.000000000000000e+00,0.000000000000000e+00
	-1.127285784137777e+02,0.0
	-2.200954159089804e+02,0.0
	-3.128446062399600e+02,0.0
	-4.036103039265378e+02,0.0

 88	6.309573444801968e+08,0.000000000000000e+00
	0.000000000000000e+00,0.000000000000000e+00
	-1.147285784137377e+02,0.0
	-2.240954159042104e+02,0.0
	-3.188446062337118e+02,0.0
	-4.116103039189460e+02,0.0

 89	7.943282347242861e+08,0.000000000000000e+00
	0.000000000000000e+00,0.000000000000000e+00
	-1.167285784137125e+02,0.0
	-2.280954159012006e+02,0.0
	-3.248446062297695e+02,0.0
	-4.196103039141558e+02,0.0

 90	1.000000000000006e+09,0.000000000000000e+00
	0.000000000000000e+00,0.000000000000000e+00
	-1.187285784136965e+02,0.0
	-2.320954158993016e+02,0.0
	-3.308446062272820e+02,0.0
	-4.276103039111334e+02,0.0

