Title: ********digital inverter**********
Date: Tue Jul 25 04:47:10  2023
Plotname: DC transfer characteristic
Flags: real
No. Variables: 6
No. Points: 331
Variables:
	0	v(v-sweep)	voltage
	1	v(out)	voltage
	2	i(@mn[id])	current
	3	switch_point	notype dims=1
	4	i_max	notype dims=1
	5	i_max_at	notype dims=1
Values:
 0	0.000000000000000e+00
	3.299999990769493e+00
	1.093278318902574e-13
	1.749796000000000e+00
	1.065308000000000e-04
	1.670000000000000e+00

 1	1.000000000000000e-02
	3.299999990674112e+00
	1.424994075604761e-13
	0.000000000000000e+00
	0.000000000000000e+00
	0.000000000000000e+00

 2	2.000000000000000e-02
	3.299999990527172e+00
	1.857333840968991e-13
	0.000000000000000e+00
	0.000000000000000e+00
	0.000000000000000e+00

 3	3.000000000000000e-02
	3.299999990354721e+00
	2.420810024945825e-13
	0.000000000000000e+00
	0.000000000000000e+00
	0.000000000000000e+00

 4	4.000000000000000e-02
	3.299999990134462e+00
	3.155181869954387e-13
	0.000000000000000e+00
	0.000000000000000e+00
	0.000000000000000e+00

 5	5.000000000000000e-02
	3.299999989852515e+00
	4.112255035067117e-13
	0.000000000000000e+00
	0.000000000000000e+00
	0.000000000000000e+00

 6	6.000000000000000e-02
	3.299999989487385e+00
	5.359527479495411e-13
	0.000000000000000e+00
	0.000000000000000e+00
	0.000000000000000e+00

 7	7.000000000000001e-02
	3.299999989014951e+00
	6.984936841147777e-13
	0.000000000000000e+00
	0.000000000000000e+00
	0.000000000000000e+00

 8	8.000000000000000e-02
	3.299999988405060e+00
	9.103041149093071e-13
	0.000000000000000e+00
	0.000000000000000e+00
	0.000000000000000e+00

 9	9.000000000000000e-02
	3.299999987612336e+00
	1.186306421990963e-12
	0.000000000000000e+00
	0.000000000000000e+00
	0.000000000000000e+00

 10	9.999999999999999e-02
	3.299999986582717e+00
	1.545936621739966e-12
	0.000000000000000e+00
	0.000000000000000e+00
	0.000000000000000e+00

 11	1.100000000000000e-01
	3.299999985244985e+00
	2.014506730983292e-12
	0.000000000000000e+00
	0.000000000000000e+00
	0.000000000000000e+00

 12	1.200000000000000e-01
	3.299999983503541e+00
	2.624976935410055e-12
	0.000000000000000e+00
	0.000000000000000e+00
	0.000000000000000e+00

 13	1.300000000000000e-01
	3.299999981234139e+00
	3.420260149005132e-12
	0.000000000000000e+00
	0.000000000000000e+00
	0.000000000000000e+00

 14	1.400000000000000e-01
	3.299999978278755e+00
	4.456217894209681e-12
	0.000000000000000e+00
	0.000000000000000e+00
	0.000000000000000e+00

 15	1.500000000000000e-01
	3.299999974425851e+00
	5.805553388009610e-12
	0.000000000000000e+00
	0.000000000000000e+00
	0.000000000000000e+00

 16	1.600000000000000e-01
	3.299999969403794e+00
	7.562868312270506e-12
	0.000000000000000e+00
	0.000000000000000e+00
	0.000000000000000e+00

 17	1.700000000000000e-01
	3.299999962856475e+00
	9.851227824745311e-12
	0.000000000000000e+00
	0.000000000000000e+00
	0.000000000000000e+00

 18	1.800000000000000e-01
	3.299999954320811e+00
	1.283067880918155e-11
	0.000000000000000e+00
	0.000000000000000e+00
	0.000000000000000e+00

 19	1.900000000000000e-01
	3.299999943192054e+00
	1.670929532847779e-11
	0.000000000000000e+00
	0.000000000000000e+00
	0.000000000000000e+00

 20	2.000000000000000e-01
	3.299999928683910e+00
	2.175749047325404e-11
	0.000000000000000e+00
	0.000000000000000e+00
	0.000000000000000e+00

 21	2.100000000000000e-01
	3.299999909772346e+00
	2.832654495562930e-11
	0.000000000000000e+00
	0.000000000000000e+00
	0.000000000000000e+00

 22	2.200000000000001e-01
	3.299999885124470e+00
	3.687257187612260e-11
	0.000000000000000e+00
	0.000000000000000e+00
	0.000000000000000e+00

 23	2.300000000000001e-01
	3.299999853007898e+00
	4.798747884414995e-11
	0.000000000000000e+00
	0.000000000000000e+00
	0.000000000000000e+00

 24	2.400000000000001e-01
	3.299999811170790e+00
	6.243892103711663e-11
	0.000000000000000e+00
	0.000000000000000e+00
	0.000000000000000e+00

 25	2.500000000000001e-01
	3.299999756686610e+00
	8.122178348614124e-11
	0.000000000000000e+00
	0.000000000000000e+00
	0.000000000000000e+00

 26	2.600000000000001e-01
	3.299999685759835e+00
	1.056244135700952e-10
	0.000000000000000e+00
	0.000000000000000e+00
	0.000000000000000e+00

 27	2.700000000000001e-01
	3.299999593465667e+00
	1.373136753328130e-10
	0.000000000000000e+00
	0.000000000000000e+00
	0.000000000000000e+00

 28	2.800000000000001e-01
	3.299999473428117e+00
	1.784439499336606e-10
	0.000000000000000e+00
	0.000000000000000e+00
	0.000000000000000e+00

 29	2.900000000000001e-01
	3.299999317396684e+00
	2.317964990257881e-10
	0.000000000000000e+00
	0.000000000000000e+00
	0.000000000000000e+00

 30	3.000000000000001e-01
	3.299999114704163e+00
	3.009571801640621e-10
	0.000000000000000e+00
	0.000000000000000e+00
	0.000000000000000e+00

 31	3.100000000000001e-01
	3.299998851592570e+00
	3.905423954765179e-10
	0.000000000000000e+00
	0.000000000000000e+00
	0.000000000000000e+00

 32	3.200000000000001e-01
	3.299998510333741e+00
	5.064854030152589e-10
	0.000000000000000e+00
	0.000000000000000e+00
	0.000000000000000e+00

 33	3.300000000000001e-01
	3.299998068130658e+00
	6.563977514109948e-10
	0.000000000000000e+00
	0.000000000000000e+00
	0.000000000000000e+00

 34	3.400000000000001e-01
	3.299997495729378e+00
	8.500236228652085e-10
	0.000000000000000e+00
	0.000000000000000e+00
	0.000000000000000e+00

 35	3.500000000000001e-01
	3.299996755673217e+00
	1.099808270935784e-09
	0.000000000000000e+00
	0.000000000000000e+00
	0.000000000000000e+00

 36	3.600000000000002e-01
	3.299995800126748e+00
	1.421605464183105e-09
	0.000000000000000e+00
	0.000000000000000e+00
	0.000000000000000e+00

 37	3.700000000000002e-01
	3.299994568172751e+00
	1.835552791400825e-09
	0.000000000000000e+00
	0.000000000000000e+00
	0.000000000000000e+00

 38	3.800000000000002e-01
	3.299992982478993e+00
	2.367147686606712e-09
	0.000000000000000e+00
	0.000000000000000e+00
	0.000000000000000e+00

 39	3.900000000000002e-01
	3.299990945217418e+00
	3.048560866786558e-09
	0.000000000000000e+00
	0.000000000000000e+00
	0.000000000000000e+00

 40	4.000000000000002e-01
	3.299988333092428e+00
	3.920227261020715e-09
	0.000000000000000e+00
	0.000000000000000e+00
	0.000000000000000e+00

 41	4.100000000000002e-01
	3.299984991351878e+00
	5.032757133102156e-09
	0.000000000000000e+00
	0.000000000000000e+00
	0.000000000000000e+00

 42	4.200000000000002e-01
	3.299980726628728e+00
	6.449211664730729e-09
	0.000000000000000e+00
	0.000000000000000e+00
	0.000000000000000e+00

 43	4.300000000000002e-01
	3.299975298444130e+00
	8.247787567046857e-09
	0.000000000000000e+00
	0.000000000000000e+00
	0.000000000000000e+00

 44	4.400000000000002e-01
	3.299968409239720e+00
	1.052495430219372e-08
	0.000000000000000e+00
	0.000000000000000e+00
	0.000000000000000e+00

 45	4.500000000000002e-01
	3.299959692781863e+00
	1.339908547380868e-08
	0.000000000000000e+00
	0.000000000000000e+00
	0.000000000000000e+00

 46	4.600000000000002e-01
	3.299948700774001e+00
	1.701462345020057e-08
	0.000000000000000e+00
	0.000000000000000e+00
	0.000000000000000e+00

 47	4.700000000000003e-01
	3.299934887569724e+00
	2.154681412126993e-08
	0.000000000000000e+00
	0.000000000000000e+00
	0.000000000000000e+00

 48	4.800000000000003e-01
	3.299917592807007e+00
	2.720704763426282e-08
	0.000000000000000e+00
	0.000000000000000e+00
	0.000000000000000e+00

 49	4.900000000000003e-01
	3.299896021845299e+00
	3.424884121601183e-08
	0.000000000000000e+00
	0.000000000000000e+00
	0.000000000000000e+00

 50	5.000000000000002e-01
	3.299869223835465e+00
	4.297450062413480e-08
	0.000000000000000e+00
	0.000000000000000e+00
	0.000000000000000e+00

 51	5.100000000000002e-01
	3.299836067278541e+00
	5.374249395305580e-08
	0.000000000000000e+00
	0.000000000000000e+00
	0.000000000000000e+00

 52	5.200000000000002e-01
	3.299795212977260e+00
	6.697555902429958e-08
	0.000000000000000e+00
	0.000000000000000e+00
	0.000000000000000e+00

 53	5.300000000000002e-01
	3.299745084346723e+00
	8.316953395065475e-08
	0.000000000000000e+00
	0.000000000000000e+00
	0.000000000000000e+00

 54	5.400000000000003e-01
	3.299683835235320e+00
	1.029028384039452e-07
	0.000000000000000e+00
	0.000000000000000e+00
	0.000000000000000e+00

 55	5.500000000000003e-01
	3.299609315795578e+00
	1.268464303776863e-07
	0.000000000000000e+00
	0.000000000000000e+00
	0.000000000000000e+00

 56	5.600000000000003e-01
	3.299519037297859e+00
	1.557739148245936e-07
	0.000000000000000e+00
	0.000000000000000e+00
	0.000000000000000e+00

 57	5.700000000000003e-01
	3.299410137474313e+00
	1.905712914471345e-07
	0.000000000000000e+00
	0.000000000000000e+00
	0.000000000000000e+00

 58	5.800000000000003e-01
	3.299279348610609e+00
	2.322456175158565e-07
	0.000000000000000e+00
	0.000000000000000e+00
	0.000000000000000e+00

 59	5.900000000000003e-01
	3.299122971288683e+00
	2.819316599887678e-07
	0.000000000000000e+00
	0.000000000000000e+00
	0.000000000000000e+00

 60	6.000000000000003e-01
	3.298936857200511e+00
	3.408954611510674e-07
	0.000000000000000e+00
	0.000000000000000e+00
	0.000000000000000e+00

 61	6.100000000000003e-01
	3.298716404689671e+00
	4.105336868030412e-07
	0.000000000000000e+00
	0.000000000000000e+00
	0.000000000000000e+00

 62	6.200000000000003e-01
	3.298456570515859e+00
	4.923677005742664e-07
	0.000000000000000e+00
	0.000000000000000e+00
	0.000000000000000e+00

 63	6.300000000000003e-01
	3.298151900720696e+00
	5.880315298494010e-07
	0.000000000000000e+00
	0.000000000000000e+00
	0.000000000000000e+00

 64	6.400000000000003e-01
	3.297796582368701e+00
	6.992532534330723e-07
	0.000000000000000e+00
	0.000000000000000e+00
	0.000000000000000e+00

 65	6.500000000000004e-01
	3.297384516513433e+00
	8.278298214963919e-07
	0.000000000000000e+00
	0.000000000000000e+00
	0.000000000000000e+00

 66	6.600000000000004e-01
	3.296909410957452e+00
	9.755958690150337e-07
	0.000000000000000e+00
	0.000000000000000e+00
	0.000000000000000e+00

 67	6.700000000000004e-01
	3.296364889647807e+00
	1.144387646635807e-06
	0.000000000000000e+00
	0.000000000000000e+00
	0.000000000000000e+00

 68	6.800000000000004e-01
	3.295744613849564e+00
	1.336003703226308e-06
	0.000000000000000e+00
	0.000000000000000e+00
	0.000000000000000e+00

 69	6.900000000000004e-01
	3.295042408924104e+00
	1.552164348466896e-06
	0.000000000000000e+00
	0.000000000000000e+00
	0.000000000000000e+00

 70	7.000000000000004e-01
	3.294252389735120e+00
	1.794472146465865e-06
	0.000000000000000e+00
	0.000000000000000e+00
	0.000000000000000e+00

 71	7.100000000000004e-01
	3.293369077496128e+00
	2.064375704698561e-06
	0.000000000000000e+00
	0.000000000000000e+00
	0.000000000000000e+00

 72	7.200000000000004e-01
	3.292387501465942e+00
	2.363138814738549e-06
	0.000000000000000e+00
	0.000000000000000e+00
	0.000000000000000e+00

 73	7.300000000000004e-01
	3.291303279993129e+00
	2.691816591426098e-06
	0.000000000000000e+00
	0.000000000000000e+00
	0.000000000000000e+00

 74	7.400000000000004e-01
	3.290112677157186e+00
	3.051239694836960e-06
	0.000000000000000e+00
	0.000000000000000e+00
	0.000000000000000e+00

 75	7.500000000000004e-01
	3.288812633189882e+00
	3.442007076591070e-06
	0.000000000000000e+00
	0.000000000000000e+00
	0.000000000000000e+00

 76	7.600000000000005e-01
	3.287400768871252e+00
	3.864487049892121e-06
	0.000000000000000e+00
	0.000000000000000e+00
	0.000000000000000e+00

 77	7.700000000000005e-01
	3.285875365912335e+00
	4.318825916601786e-06
	0.000000000000000e+00
	0.000000000000000e+00
	0.000000000000000e+00

 78	7.800000000000005e-01
	3.284235326741317e+00
	4.804962951337182e-06
	0.000000000000000e+00
	0.000000000000000e+00
	0.000000000000000e+00

 79	7.900000000000005e-01
	3.282480118054690e+00
	5.322650272700939e-06
	0.000000000000000e+00
	0.000000000000000e+00
	0.000000000000000e+00

 80	8.000000000000005e-01
	3.280609702876145e+00
	5.871476028783928e-06
	0.000000000000000e+00
	0.000000000000000e+00
	0.000000000000000e+00

 81	8.100000000000005e-01
	3.278624465846754e+00
	6.450889368927152e-06
	0.000000000000000e+00
	0.000000000000000e+00
	0.000000000000000e+00

 82	8.200000000000005e-01
	3.276525136025263e+00
	7.060225832350168e-06
	0.000000000000000e+00
	0.000000000000000e+00
	0.000000000000000e+00

 83	8.300000000000005e-01
	3.274312710800242e+00
	7.698732016420513e-06
	0.000000000000000e+00
	0.000000000000000e+00
	0.000000000000000e+00

 84	8.400000000000005e-01
	3.271988383771689e+00
	8.365588654000926e-06
	0.000000000000000e+00
	0.000000000000000e+00
	0.000000000000000e+00

 85	8.500000000000005e-01
	3.269553478572714e+00
	9.059931497551134e-06
	0.000000000000000e+00
	0.000000000000000e+00
	0.000000000000000e+00

 86	8.600000000000005e-01
	3.267009389931459e+00
	9.780869653628297e-06
	0.000000000000000e+00
	0.000000000000000e+00
	0.000000000000000e+00

 87	8.700000000000006e-01
	3.264357532527208e+00
	1.052750122016939e-05
	0.000000000000000e+00
	0.000000000000000e+00
	0.000000000000000e+00

 88	8.800000000000006e-01
	3.261599297744781e+00
	1.129892624396574e-05
	0.000000000000000e+00
	0.000000000000000e+00
	0.000000000000000e+00

 89	8.900000000000006e-01
	3.258736017998254e+00
	1.209425713650881e-05
	0.000000000000000e+00
	0.000000000000000e+00
	0.000000000000000e+00

 90	9.000000000000006e-01
	3.255768938026713e+00
	1.291262676679411e-05
	0.000000000000000e+00
	0.000000000000000e+00
	0.000000000000000e+00

 91	9.100000000000006e-01
	3.252699192421342e+00
	1.375319449589037e-05
	0.000000000000000e+00
	0.000000000000000e+00
	0.000000000000000e+00

 92	9.200000000000006e-01
	3.249527788551663e+00
	1.461515043717849e-05
	0.000000000000000e+00
	0.000000000000000e+00
	0.000000000000000e+00

 93	9.300000000000006e-01
	3.246255594031323e+00
	1.549771822510964e-05
	0.000000000000000e+00
	0.000000000000000e+00
	0.000000000000000e+00

 94	9.400000000000006e-01
	3.242883327922477e+00
	1.640015656042391e-05
	0.000000000000000e+00
	0.000000000000000e+00
	0.000000000000000e+00

 95	9.500000000000006e-01
	3.239411554923806e+00
	1.732175977612186e-05
	0.000000000000000e+00
	0.000000000000000e+00
	0.000000000000000e+00

 96	9.600000000000006e-01
	3.235840681859912e+00
	1.826185764022077e-05
	0.000000000000000e+00
	0.000000000000000e+00
	0.000000000000000e+00

 97	9.700000000000006e-01
	3.232170955890041e+00
	1.921981458148624e-05
	0.000000000000000e+00
	0.000000000000000e+00
	0.000000000000000e+00

 98	9.800000000000006e-01
	3.228402463900991e+00
	2.019502849495208e-05
	0.000000000000000e+00
	0.000000000000000e+00
	0.000000000000000e+00

 99	9.900000000000007e-01
	3.224535132714348e+00
	2.118692925665655e-05
	0.000000000000000e+00
	0.000000000000000e+00
	0.000000000000000e+00

 100	1.000000000000001e+00
	3.220568729663891e+00
	2.219497705207920e-05
	0.000000000000000e+00
	0.000000000000000e+00
	0.000000000000000e+00

 101	1.010000000000001e+00
	3.216502863352994e+00
	2.321866060117748e-05
	0.000000000000000e+00
	0.000000000000000e+00
	0.000000000000000e+00

 102	1.020000000000001e+00
	3.212336984260820e+00
	2.425749534405822e-05
	0.000000000000000e+00
	0.000000000000000e+00
	0.000000000000000e+00

 103	1.030000000000001e+00
	3.208070385084485e+00
	2.531102163580655e-05
	0.000000000000000e+00
	0.000000000000000e+00
	0.000000000000000e+00

 104	1.040000000000001e+00
	3.203702200596480e+00
	2.637880298589311e-05
	0.000000000000000e+00
	0.000000000000000e+00
	0.000000000000000e+00

 105	1.050000000000001e+00
	3.199231406949775e+00
	2.746042436720394e-05
	0.000000000000000e+00
	0.000000000000000e+00
	0.000000000000000e+00

 106	1.060000000000001e+00
	3.194656820276029e+00
	2.855549061123847e-05
	0.000000000000000e+00
	0.000000000000000e+00
	0.000000000000000e+00

 107	1.070000000000001e+00
	3.189977094541704e+00
	2.966362489954837e-05
	0.000000000000000e+00
	0.000000000000000e+00
	0.000000000000000e+00

 108	1.080000000000001e+00
	3.185190718534357e+00
	3.078446735630917e-05
	0.000000000000000e+00
	0.000000000000000e+00
	0.000000000000000e+00

 109	1.090000000000001e+00
	3.180296011958955e+00
	3.191767374320675e-05
	0.000000000000000e+00
	0.000000000000000e+00
	0.000000000000000e+00

 110	1.100000000000001e+00
	3.175291120539416e+00
	3.306291425489803e-05
	0.000000000000000e+00
	0.000000000000000e+00
	0.000000000000000e+00

 111	1.110000000000001e+00
	3.170174010071594e+00
	3.421987241135870e-05
	0.000000000000000e+00
	0.000000000000000e+00
	0.000000000000000e+00

 112	1.120000000000001e+00
	3.164942459372765e+00
	3.538824404206175e-05
	0.000000000000000e+00
	0.000000000000000e+00
	0.000000000000000e+00

 113	1.130000000000001e+00
	3.159594051988445e+00
	3.656773635594854e-05
	0.000000000000000e+00
	0.000000000000000e+00
	0.000000000000000e+00

 114	1.140000000000001e+00
	3.154126166644714e+00
	3.775806709082486e-05
	0.000000000000000e+00
	0.000000000000000e+00
	0.000000000000000e+00

 115	1.150000000000001e+00
	3.148535966264900e+00
	3.895896373539093e-05
	0.000000000000000e+00
	0.000000000000000e+00
	0.000000000000000e+00

 116	1.160000000000001e+00
	3.142820385470478e+00
	4.017016281724275e-05
	0.000000000000000e+00
	0.000000000000000e+00
	0.000000000000000e+00

 117	1.170000000000001e+00
	3.136976116400756e+00
	4.139140925022105e-05
	0.000000000000000e+00
	0.000000000000000e+00
	0.000000000000000e+00

 118	1.180000000000001e+00
	3.130999592696635e+00
	4.262245573474620e-05
	0.000000000000000e+00
	0.000000000000000e+00
	0.000000000000000e+00

 119	1.190000000000001e+00
	3.124886971430753e+00
	4.386306220500138e-05
	0.000000000000000e+00
	0.000000000000000e+00
	0.000000000000000e+00

 120	1.200000000000001e+00
	3.118634112762687e+00
	4.511299531716769e-05
	0.000000000000000e+00
	0.000000000000000e+00
	0.000000000000000e+00

 121	1.210000000000001e+00
	3.112236557031629e+00
	4.637202797317847e-05
	0.000000000000000e+00
	0.000000000000000e+00
	0.000000000000000e+00

 122	1.220000000000001e+00
	3.105689498985389e+00
	4.763993887479441e-05
	0.000000000000000e+00
	0.000000000000000e+00
	0.000000000000000e+00

 123	1.230000000000001e+00
	3.098987758733809e+00
	4.891651210297366e-05
	0.000000000000000e+00
	0.000000000000000e+00
	0.000000000000000e+00

 124	1.240000000000001e+00
	3.092125748993658e+00
	5.020153671779249e-05
	0.000000000000000e+00
	0.000000000000000e+00
	0.000000000000000e+00

 125	1.250000000000001e+00
	3.085097438087721e+00
	5.149480637429045e-05
	0.000000000000000e+00
	0.000000000000000e+00
	0.000000000000000e+00

 126	1.260000000000001e+00
	3.077896308065339e+00
	5.279611894970560e-05
	0.000000000000000e+00
	0.000000000000000e+00
	0.000000000000000e+00

 127	1.270000000000001e+00
	3.070515307178673e+00
	5.410527617755187e-05
	0.000000000000000e+00
	0.000000000000000e+00
	0.000000000000000e+00

 128	1.280000000000001e+00
	3.062946795823978e+00
	5.542208328394055e-05
	0.000000000000000e+00
	0.000000000000000e+00
	0.000000000000000e+00

 129	1.290000000000001e+00
	3.055182484839862e+00
	5.674634862129228e-05
	0.000000000000000e+00
	0.000000000000000e+00
	0.000000000000000e+00

 130	1.300000000000001e+00
	3.047213364888742e+00
	5.807788329434745e-05
	0.000000000000000e+00
	0.000000000000000e+00
	0.000000000000000e+00

 131	1.310000000000001e+00
	3.039029625283562e+00
	5.941650077275780e-05
	0.000000000000000e+00
	0.000000000000000e+00
	0.000000000000000e+00

 132	1.320000000000001e+00
	3.030620560353178e+00
	6.076201648397924e-05
	0.000000000000000e+00
	0.000000000000000e+00
	0.000000000000000e+00

 133	1.330000000000001e+00
	3.021974460940364e+00
	6.211424737915390e-05
	0.000000000000000e+00
	0.000000000000000e+00
	0.000000000000000e+00

 134	1.340000000000001e+00
	3.013078488130788e+00
	6.347301146351780e-05
	0.000000000000000e+00
	0.000000000000000e+00
	0.000000000000000e+00

 135	1.350000000000001e+00
	3.003918525491640e+00
	6.483812728103447e-05
	0.000000000000000e+00
	0.000000000000000e+00
	0.000000000000000e+00

 136	1.360000000000001e+00
	2.994479005299132e+00
	6.620941334095951e-05
	0.000000000000000e+00
	0.000000000000000e+00
	0.000000000000000e+00

 137	1.370000000000001e+00
	2.984742702945350e+00
	6.758668747099132e-05
	0.000000000000000e+00
	0.000000000000000e+00
	0.000000000000000e+00

 138	1.380000000000001e+00
	2.974690492148322e+00
